
**** 11/26/15 16:28:17 ****** PSpice Lite (October 2012) ****** ID# 10813 ****

 ** Profile: "SCHEMATIC1-SimProf"  [ D:\Documents\Design & Development\GitHub Repositories\CS-VTU-Lab-Manual\3rd-Sem\ElectronicCircui


 ****     CIRCUIT DESCRIPTION


******************************************************************************




** Creating circuit file "SimProf.cir" 
** WARNING: THIS AUTOMATICALLY GENERATED FILE MAY BE OVERWRITTEN BY SUBSEQUENT SIMULATIONS

*Libraries: 
* Profile Libraries :
* Local Libraries :
* From [PSPICE NETLIST] section of C:\Users\amrut\AppData\Roaming\SPB_16.6\cdssetup\OrCAD_PSpice/16.6.0/PSpice.ini file:
.lib "nomd.lib" 

*Analysis directives: 
.AC DEC 40 20 20meg
.OPTIONS ADVCONV
.PROBE64 V(alias(*)) I(alias(*)) W(alias(*)) D(alias(*)) NOISE(alias(*)) 
.INC "..\SCHEMATIC1.net" 



**** INCLUDING SCHEMATIC1.net ****
* source CE AMPLIFIER
C_C1         N00332 N00339  0.47uF  TC=0,0 
C_C2         N00379 N00422  0.5uF  TC=0,0 
R_R1         N00339 N00362  1k TC=0,0 
R_R2         0 N00339  1k TC=0,0 
R_R3         N00379 N00362  1k TC=0,0 
R_R4         0 N00383  1k TC=0,0 
V_V1         N00362 0 10
Q_Q1         N00379 N00339 N00383 Q2N2222
R_R5         0 N00422  1k TC=0,0 
C_C3         0 N00383  100uF  TC=0,0 
V_V2         N00332 0 DC 0Vdc AC 50mV 

**** RESUMING SimProf.cir ****
.END

**** 11/26/15 16:28:17 ****** PSpice Lite (October 2012) ****** ID# 10813 ****

 ** Profile: "SCHEMATIC1-SimProf"  [ D:\Documents\Design & Development\GitHub Repositories\CS-VTU-Lab-Manual\3rd-Sem\ElectronicCircui


 ****     BJT MODEL PARAMETERS


******************************************************************************




               Q2N2222         
               NPN             
       LEVEL    1            
          IS   14.340000E-15 
          BF  255.9          
          NF    1            
         VAF   74.03         
         IKF     .2847       
         ISE   14.340000E-15 
          NE    1.307        
          BR    6.092        
          NR    1            
         ISS    0            
          RB   10            
          RE    0            
          RC    1            
         CJE   22.010000E-12 
         VJE     .75         
         MJE     .377        
         CJC    7.306000E-12 
         VJC     .75         
         MJC     .3416       
        XCJC    1            
         CJS    0            
         VJS     .75         
          TF  411.100000E-12 
         XTF    3            
         VTF    1.7          
         ITF     .6          
          TR   46.910000E-09 
         XTB    1.5          
          KF    0            
          AF    1            
          CN    2.42         
           D     .87         


**** 11/26/15 16:28:17 ****** PSpice Lite (October 2012) ****** ID# 10813 ****

 ** Profile: "SCHEMATIC1-SimProf"  [ D:\Documents\Design & Development\GitHub Repositories\CS-VTU-Lab-Manual\3rd-Sem\ElectronicCircui


 ****     SMALL SIGNAL BIAS SOLUTION       TEMPERATURE =   27.000 DEG C


******************************************************************************



 NODE   VOLTAGE     NODE   VOLTAGE     NODE   VOLTAGE     NODE   VOLTAGE


(N00332)    0.0000 (N00339)    4.9873 (N00362)   10.0000 (N00379)    5.7219     

(N00383)    4.3035 (N00422)    0.0000 




    VOLTAGE SOURCE CURRENTS
    NAME         CURRENT

    V_V1        -9.291E-03
    V_V2         0.000E+00

    TOTAL POWER DISSIPATION   9.29E-02  WATTS



          JOB CONCLUDED

**** 11/26/15 16:28:17 ****** PSpice Lite (October 2012) ****** ID# 10813 ****

 ** Profile: "SCHEMATIC1-SimProf"  [ D:\Documents\Design & Development\GitHub Repositories\CS-VTU-Lab-Manual\3rd-Sem\ElectronicCircui


 ****     JOB STATISTICS SUMMARY


******************************************************************************



  Total job time (using Solver 1)   =         .03
